!Mini-Circuits
!Created: 09-03-2020 at 14:11:39
!MODEL: BFCG-552+
!S/N: Unit 1
# MHZ S DB R 50
!Frequency          S11 dB       S11 DEG      	S21 dB    	S21 DEG        S12 dB          S12 DEG     S22 dB    	  S22 DEG
  10.0000     -7.226484E-002  1.791985E+002 -6.305618E+001  9.630861E+000 -6.216533E+001  1.129946E+001 -9.646170E-002  1.794547E+002
  20.0000     -9.057471E-002  1.793795E+002 -6.205426E+001  1.801966E+001 -6.259742E+001  1.859512E+001 -1.223883E-001  1.795454E+002
  30.0000     -6.537286E-002  1.793453E+002 -6.147919E+001  2.409374E+001 -6.184917E+001  2.666337E+001 -8.783136E-002  1.794467E+002
  40.0000     -5.972089E-002  1.792538E+002 -6.114785E+001  2.910957E+001 -6.135409E+001  3.091983E+001 -8.991125E-002  1.793061E+002
  50.0000     -5.982079E-002  1.790836E+002 -6.049863E+001  3.760257E+001 -6.054534E+001  3.663303E+001 -7.565681E-002  1.791864E+002
  60.0000     -5.030748E-002  1.789722E+002 -5.979098E+001  4.142553E+001 -5.998887E+001  4.121887E+001 -6.472764E-002  1.790648E+002
  70.0000     -4.608782E-002  1.788551E+002 -5.922763E+001  4.555132E+001 -5.931604E+001  4.488765E+001 -5.824592E-002  1.789498E+002
  80.0000     -4.141487E-002  1.787359E+002 -5.852805E+001  5.167174E+001 -5.856396E+001  4.939199E+001 -5.396791E-002  1.788438E+002
  90.0000     -3.970017E-002  1.786220E+002 -5.784461E+001  5.345821E+001 -5.821423E+001  5.297627E+001 -5.180632E-002  1.787191E+002
 100.0000     -3.626785E-002  1.785004E+002 -5.726593E+001  5.503879E+001 -5.725169E+001  5.477095E+001 -4.648570E-002  1.786210E+002
 110.0000     -3.415591E-002  1.783579E+002 -5.671970E+001  5.729639E+001 -5.675342E+001  5.881374E+001 -4.197298E-002  1.784913E+002
 120.0000     -3.173642E-002  1.782231E+002 -5.624259E+001  6.017012E+001 -5.602536E+001  6.030507E+001 -4.028808E-002  1.783624E+002
 130.0000     -2.986311E-002  1.780744E+002 -5.550694E+001  6.176221E+001 -5.546458E+001  6.103214E+001 -3.757621E-002  1.782227E+002
 140.0000     -2.751615E-002  1.779477E+002 -5.499556E+001  6.265317E+001 -5.515651E+001  6.320170E+001 -3.631532E-002  1.780899E+002
 150.0000     -2.547921E-002  1.778201E+002 -5.443297E+001  6.428972E+001 -5.464459E+001  6.337283E+001 -3.342768E-002  1.779709E+002
 160.0000     -2.238449E-002  1.776912E+002 -5.406205E+001  6.506143E+001 -5.414318E+001  6.577057E+001 -3.058754E-002  1.778412E+002
 170.0000     -2.272077E-002  1.775614E+002 -5.361413E+001  6.608331E+001 -5.370189E+001  6.644447E+001 -3.108266E-002  1.777229E+002
 180.0000     -2.092376E-002  1.774318E+002 -5.317149E+001  6.609258E+001 -5.323904E+001  6.758715E+001 -2.848887E-002  1.776037E+002
 190.0000     -2.086948E-002  1.773036E+002 -5.292841E+001  6.851602E+001 -5.268366E+001  6.839494E+001 -2.571455E-002  1.774955E+002
 200.0000     -1.842912E-002  1.771895E+002 -5.245475E+001  6.894921E+001 -5.237778E+001  6.869764E+001 -2.434279E-002  1.773805E+002
 210.0000     -1.750486E-002  1.770688E+002 -5.198294E+001  6.958859E+001 -5.195358E+001  6.918720E+001 -2.278340E-002  1.772639E+002
 220.0000     -1.669258E-002  1.769451E+002 -5.152147E+001  7.013029E+001 -5.155687E+001  7.071645E+001 -2.065597E-002  1.771498E+002
 230.0000     -1.476509E-002  1.768259E+002 -5.125465E+001  7.064244E+001 -5.119648E+001  6.996827E+001 -2.066074E-002  1.770358E+002
 240.0000     -1.419981E-002  1.767125E+002 -5.097062E+001  7.113731E+001 -5.088058E+001  7.123734E+001 -1.725116E-002  1.769202E+002
 250.0000     -1.317279E-002  1.765809E+002 -5.057030E+001  7.138664E+001 -5.053600E+001  7.194612E+001 -1.641476E-002  1.767982E+002
 260.0000     -1.311813E-002  1.764650E+002 -5.026311E+001  7.273241E+001 -5.026714E+001  7.227394E+001 -1.605083E-002  1.766833E+002
 270.0000     -1.302317E-002  1.763437E+002 -4.989209E+001  7.254972E+001 -4.998288E+001  7.223596E+001 -1.564981E-002  1.765787E+002
 280.0000     -1.087853E-002  1.762228E+002 -4.971754E+001  7.189011E+001 -4.965563E+001  7.286584E+001 -1.349491E-002  1.764798E+002
 290.0000     -9.012154E-003  1.761154E+002 -4.945169E+001  7.285923E+001 -4.936447E+001  7.321581E+001 -1.180392E-002  1.763766E+002
 300.0000     -9.014160E-003  1.760026E+002 -4.906322E+001  7.366771E+001 -4.913095E+001  7.352783E+001 -1.101601E-002  1.762735E+002
 310.0000     -8.689363E-003  1.758962E+002 -4.882502E+001  7.380652E+001 -4.887861E+001  7.370914E+001 -8.641778E-003  1.761696E+002
 320.0000     -7.797312E-003  1.757946E+002 -4.855980E+001  7.351542E+001 -4.856140E+001  7.382999E+001 -8.151621E-003  1.760640E+002
 330.0000     -7.126931E-003  1.756884E+002 -4.831314E+001  7.456439E+001 -4.833723E+001  7.421066E+001 -5.741070E-003  1.759578E+002
 340.0000     -5.952656E-003  1.755701E+002 -4.806464E+001  7.376789E+001 -4.800129E+001  7.424464E+001 -4.510565E-003  1.758371E+002
 350.0000     -5.549225E-003  1.754548E+002 -4.785528E+001  7.432103E+001 -4.781431E+001  7.404950E+001 -4.151834E-003  1.757187E+002
 360.0000     -6.027500E-003  1.753441E+002 -4.757132E+001  7.462260E+001 -4.758356E+001  7.422160E+001 -3.108482E-003  1.756073E+002
 370.0000     -4.828160E-003  1.752089E+002 -4.735678E+001  7.447311E+001 -4.732451E+001  7.470850E+001 -2.747918E-003  1.754917E+002
 380.0000     -4.067626E-003  1.750761E+002 -4.715320E+001  7.511002E+001 -4.716368E+001  7.483551E+001 -1.458217E-003  1.753677E+002
 390.0000     -2.533508E-003  1.749505E+002 -4.697107E+001  7.503762E+001 -4.694402E+001  7.502245E+001  1.008850E-003  1.752541E+002
 400.0000     -1.325587E-003  1.748194E+002 -4.674498E+001  7.479918E+001 -4.670176E+001  7.506366E+001  1.690625E-003  1.751298E+002
 410.0000      5.527625E-004  1.747071E+002 -4.649150E+001  7.485062E+001 -4.650945E+001  7.529990E+001  2.599961E-003  1.750162E+002
 420.0000      8.454233E-004  1.745957E+002 -4.631937E+001  7.516872E+001 -4.634132E+001  7.533759E+001  4.751210E-003  1.749118E+002
 430.0000      2.077507E-004  1.744878E+002 -4.611143E+001  7.527148E+001 -4.612466E+001  7.525239E+001  5.007695E-003  1.747965E+002
 440.0000      1.702104E-004  1.743802E+002 -4.592062E+001  7.529646E+001 -4.592673E+001  7.545410E+001  4.504015E-003  1.746842E+002
 450.0000     -8.282454E-004  1.742770E+002 -4.569785E+001  7.592888E+001 -4.573708E+001  7.548739E+001  5.201003E-003  1.745691E+002
 460.0000     -1.723439E-004  1.741594E+002 -4.561676E+001  7.532079E+001 -4.556865E+001  7.553973E+001  4.717745E-003  1.744546E+002
 470.0000     -7.065818E-004  1.740408E+002 -4.539640E+001  7.535071E+001 -4.541939E+001  7.576759E+001  6.143385E-003  1.743353E+002
 480.0000     -5.706630E-004  1.739173E+002 -4.520232E+001  7.543137E+001 -4.518554E+001  7.563845E+001  6.129018E-003  1.742108E+002
 490.0000      4.350266E-004  1.737970E+002 -4.506627E+001  7.553148E+001 -4.502935E+001  7.573808E+001  7.561111E-003  1.741001E+002
 500.0000      8.556620E-004  1.736619E+002 -4.484513E+001  7.578019E+001 -4.486377E+001  7.592059E+001  6.917517E-003  1.739794E+002
 510.0000      5.243264E-004  1.735464E+002 -4.467908E+001  7.529955E+001 -4.473614E+001  7.555131E+001  7.485936E-003  1.738700E+002
 520.0000      8.672207E-004  1.734198E+002 -4.452367E+001  7.531512E+001 -4.451240E+001  7.579552E+001  8.776506E-003  1.737478E+002
 530.0000      1.223336E-003  1.733043E+002 -4.441666E+001  7.542631E+001 -4.436741E+001  7.554887E+001  7.644766E-003  1.736392E+002
 540.0000      5.035090E-004  1.731941E+002 -4.428628E+001  7.555368E+001 -4.424157E+001  7.554950E+001  7.737238E-003  1.735261E+002
 550.0000     -1.907526E-005  1.730784E+002 -4.404154E+001  7.561103E+001 -4.413434E+001  7.533060E+001  5.956010E-003  1.734141E+002
 560.0000     -3.767815E-004  1.729733E+002 -4.396179E+001  7.556851E+001 -4.395165E+001  7.539594E+001  7.453525E-003  1.733009E+002
 570.0000     -1.415388E-003  1.728688E+002 -4.380902E+001  7.552984E+001 -4.381208E+001  7.585970E+001  6.466335E-003  1.731808E+002
 580.0000     -1.786769E-003  1.727602E+002 -4.368192E+001  7.542407E+001 -4.365580E+001  7.578725E+001  7.625308E-003  1.730684E+002
 590.0000     -3.437739E-003  1.726478E+002 -4.352365E+001  7.563054E+001 -4.352317E+001  7.562349E+001  7.451754E-003  1.729437E+002
 600.0000     -3.021709E-003  1.725478E+002 -4.340636E+001  7.553513E+001 -4.340133E+001  7.557742E+001  6.919933E-003  1.728207E+002
 610.0000     -3.224486E-003  1.724389E+002 -4.328878E+001  7.549338E+001 -4.327401E+001  7.569366E+001  5.849232E-003  1.727053E+002
 620.0000     -3.751141E-003  1.723303E+002 -4.313490E+001  7.567759E+001 -4.310801E+001  7.556075E+001  5.790140E-003  1.725925E+002
 630.0000     -4.363273E-003  1.722192E+002 -4.298281E+001  7.549823E+001 -4.302317E+001  7.548706E+001  6.231258E-003  1.724719E+002
 640.0000     -2.503126E-003  1.721103E+002 -4.288073E+001  7.546509E+001 -4.287001E+001  7.547926E+001  5.149655E-003  1.723664E+002
 650.0000     -3.728224E-003  1.720001E+002 -4.274276E+001  7.562909E+001 -4.276191E+001  7.556721E+001  4.811410E-003  1.722535E+002
 660.0000     -2.884893E-003  1.718894E+002 -4.261139E+001  7.547363E+001 -4.262785E+001  7.541894E+001  4.247400E-003  1.721354E+002
 670.0000     -4.008214E-003  1.717819E+002 -4.251783E+001  7.541124E+001 -4.249178E+001  7.540699E+001  4.326011E-003  1.720438E+002
 680.0000     -3.097989E-003  1.716720E+002 -4.235712E+001  7.543577E+001 -4.237104E+001  7.541729E+001  4.421572E-003  1.719299E+002
 690.0000     -1.697524E-003  1.715646E+002 -4.224204E+001  7.529707E+001 -4.226265E+001  7.547795E+001  4.542002E-003  1.718223E+002
 700.0000     -3.171931E-003  1.714594E+002 -4.214327E+001  7.539121E+001 -4.216873E+001  7.530813E+001  4.801165E-003  1.717106E+002
 710.0000     -2.826378E-003  1.713568E+002 -4.199484E+001  7.539828E+001 -4.204704E+001  7.515232E+001  4.911995E-003  1.715872E+002
 720.0000     -2.715911E-003  1.712538E+002 -4.188652E+001  7.507105E+001 -4.193220E+001  7.504060E+001  6.610840E-003  1.714813E+002
 730.0000     -2.956662E-003  1.711550E+002 -4.178432E+001  7.521120E+001 -4.178960E+001  7.509297E+001  5.765639E-003  1.713575E+002
 740.0000     -2.888758E-003  1.710500E+002 -4.169044E+001  7.499891E+001 -4.172090E+001  7.497302E+001  7.288686E-003  1.712387E+002
 750.0000     -3.737329E-003  1.709415E+002 -4.157966E+001  7.483189E+001 -4.159185E+001  7.509859E+001  6.904042E-003  1.711283E+002
 760.0000     -4.826274E-003  1.708262E+002 -4.149268E+001  7.485406E+001 -4.152406E+001  7.465572E+001  5.263743E-003  1.710077E+002
 770.0000     -3.932017E-003  1.707269E+002 -4.141232E+001  7.494416E+001 -4.139926E+001  7.473188E+001  3.308118E-003  1.708919E+002
 780.0000     -5.109595E-003  1.706155E+002 -4.128747E+001  7.478045E+001 -4.127068E+001  7.482400E+001  1.815184E-003  1.707697E+002
 790.0000     -7.429690E-003  1.705100E+002 -4.120753E+001  7.497398E+001 -4.121127E+001  7.479250E+001  4.423905E-004  1.706543E+002
 800.0000     -7.727476E-003  1.703996E+002 -4.111212E+001  7.475461E+001 -4.109375E+001  7.467482E+001 -4.857873E-004  1.705442E+002
 810.0000     -6.258592E-003  1.703052E+002 -4.101788E+001  7.490906E+001 -4.103080E+001  7.476142E+001 -5.862553E-004  1.704356E+002
 820.0000     -8.214522E-003  1.702067E+002 -4.094292E+001  7.464779E+001 -4.091917E+001  7.484389E+001 -1.156008E-003  1.703233E+002
 830.0000     -8.496641E-003  1.701067E+002 -4.079870E+001  7.476370E+001 -4.082300E+001  7.483825E+001 -2.508529E-003  1.702049E+002
 840.0000     -8.026933E-003  1.700076E+002 -4.073276E+001  7.473499E+001 -4.070576E+001  7.486356E+001  2.503051E-004  1.701019E+002
 850.0000     -8.367532E-003  1.699026E+002 -4.061494E+001  7.469965E+001 -4.062294E+001  7.451949E+001  4.135679E-004  1.699741E+002
 860.0000     -7.243293E-003  1.698045E+002 -4.051310E+001  7.468602E+001 -4.053861E+001  7.468102E+001  5.924698E-004  1.698625E+002
 870.0000     -7.559497E-003  1.697027E+002 -4.044185E+001  7.442951E+001 -4.042408E+001  7.441296E+001 -6.308600E-004  1.697395E+002
 880.0000     -7.259705E-003  1.695870E+002 -4.034014E+001  7.445152E+001 -4.033336E+001  7.464725E+001  4.414797E-004  1.696066E+002
 890.0000     -5.389744E-003  1.694873E+002 -4.023444E+001  7.433027E+001 -4.024723E+001  7.437235E+001  1.395570E-003  1.694892E+002
 900.0000     -5.766205E-003  1.693925E+002 -4.017141E+001  7.409581E+001 -4.018217E+001  7.439916E+001 -9.150502E-005  1.693856E+002
 910.0000     -6.741531E-003  1.692874E+002 -4.008144E+001  7.416463E+001 -4.007719E+001  7.394609E+001 -5.618674E-004  1.692690E+002
 920.0000     -6.493145E-003  1.691776E+002 -3.998905E+001  7.408748E+001 -4.001953E+001  7.395437E+001 -2.112470E-004  1.691630E+002
 930.0000     -6.351797E-003  1.690818E+002 -3.989686E+001  7.389067E+001 -3.992828E+001  7.373890E+001 -1.065343E-004  1.690577E+002
 940.0000     -4.851801E-003  1.689809E+002 -3.983074E+001  7.397698E+001 -3.985019E+001  7.388062E+001 -9.350192E-004  1.689550E+002
 950.0000     -3.858136E-003  1.688796E+002 -3.975888E+001  7.399561E+001 -3.975834E+001  7.384976E+001  1.051962E-003  1.688408E+002
 960.0000     -3.518734E-003  1.687791E+002 -3.965784E+001  7.375384E+001 -3.971640E+001  7.376898E+001  2.944615E-004  1.687330E+002
 970.0000     -8.985332E-004  1.686782E+002 -3.957199E+001  7.368228E+001 -3.958804E+001  7.371106E+001  1.397009E-003  1.686088E+002
 980.0000     -1.594978E-003  1.685792E+002 -3.950312E+001  7.373012E+001 -3.951117E+001  7.377939E+001  3.165288E-003  1.684904E+002
 990.0000      2.234297E-003  1.684798E+002 -3.942123E+001  7.361098E+001 -3.942962E+001  7.346761E+001  5.737555E-003  1.683735E+002
1000.0000      1.796104E-003  1.683792E+002 -3.935027E+001  7.357137E+001 -3.936935E+001  7.342603E+001  6.585870E-003  1.682441E+002
1010.0000      1.529116E-003  1.682751E+002 -3.925206E+001  7.348255E+001 -3.928190E+001  7.355185E+001  4.963823E-003  1.681165E+002
1020.0000     -1.724281E-003  1.681700E+002 -3.919917E+001  7.328902E+001 -3.921391E+001  7.345414E+001  6.258086E-003  1.679890E+002
1030.0000     -3.582552E-003  1.680698E+002 -3.914540E+001  7.333529E+001 -3.914677E+001  7.335238E+001  4.452590E-003  1.678652E+002
1040.0000     -3.716504E-003  1.679630E+002 -3.908110E+001  7.328681E+001 -3.906235E+001  7.335096E+001  3.173365E-003  1.677343E+002
1050.0000     -4.801755E-003  1.678513E+002 -3.900097E+001  7.302890E+001 -3.902800E+001  7.315709E+001  3.092232E-003  1.676171E+002
1060.0000     -5.979507E-003  1.677486E+002 -3.892775E+001  7.317173E+001 -3.895702E+001  7.306768E+001  1.166844E-003  1.675068E+002
1070.0000     -5.358383E-003  1.676447E+002 -3.884836E+001  7.306392E+001 -3.888169E+001  7.319299E+001  1.165016E-003  1.673924E+002
1080.0000     -4.546314E-003  1.675380E+002 -3.876481E+001  7.292215E+001 -3.880893E+001  7.300098E+001  7.568763E-004  1.672747E+002
1090.0000     -2.370320E-003  1.674429E+002 -3.871988E+001  7.296436E+001 -3.874609E+001  7.303996E+001  1.052615E-003  1.671526E+002
1100.0000     -9.817800E-004  1.673447E+002 -3.865027E+001  7.301589E+001 -3.866017E+001  7.279472E+001  1.855457E-003  1.670407E+002
1110.0000      1.466804E-004  1.672472E+002 -3.857132E+001  7.270043E+001 -3.859209E+001  7.277870E+001  2.417401E-004  1.669374E+002
1120.0000      2.021184E-003  1.671524E+002 -3.853123E+001  7.278642E+001 -3.851609E+001  7.265411E+001  2.029611E-003  1.668257E+002
1130.0000      2.208391E-003  1.670574E+002 -3.843263E+001  7.256621E+001 -3.845692E+001  7.264013E+001  3.055052E-003  1.667176E+002
1140.0000      2.237422E-003  1.669651E+002 -3.837709E+001  7.253461E+001 -3.838643E+001  7.252265E+001  3.424870E-003  1.665887E+002
1150.0000      3.828269E-003  1.668653E+002 -3.832285E+001  7.256479E+001 -3.834444E+001  7.252930E+001  4.183498E-003  1.664833E+002
1160.0000      2.321288E-003  1.667535E+002 -3.825167E+001  7.226086E+001 -3.823568E+001  7.239159E+001  6.135638E-003  1.663528E+002
1170.0000      3.188426E-003  1.666500E+002 -3.821177E+001  7.227380E+001 -3.821264E+001  7.221669E+001  5.824374E-003  1.662277E+002
1180.0000      2.796466E-003  1.665484E+002 -3.816315E+001  7.224930E+001 -3.813477E+001  7.235081E+001  5.415548E-003  1.661026E+002
1190.0000      2.175880E-003  1.664500E+002 -3.807168E+001  7.212466E+001 -3.808782E+001  7.225087E+001  5.271495E-003  1.659866E+002
1200.0000      2.507521E-003  1.663436E+002 -3.801905E+001  7.204440E+001 -3.800854E+001  7.206079E+001  6.730432E-003  1.658719E+002
1210.0000      3.645405E-003  1.662463E+002 -3.796415E+001  7.204185E+001 -3.795449E+001  7.208437E+001  4.808809E-003  1.657382E+002
1220.0000      1.619073E-003  1.661495E+002 -3.790770E+001  7.199398E+001 -3.789325E+001  7.195284E+001  4.009175E-003  1.656238E+002
1230.0000      2.603316E-003  1.660370E+002 -3.785070E+001  7.201022E+001 -3.786596E+001  7.197016E+001  4.176713E-003  1.654998E+002
1240.0000      3.095696E-003  1.659328E+002 -3.779586E+001  7.176410E+001 -3.778081E+001  7.201987E+001  3.806339E-003  1.653884E+002
1250.0000      2.688482E-003  1.658387E+002 -3.773037E+001  7.165546E+001 -3.773433E+001  7.182750E+001  3.398185E-003  1.652564E+002
1260.0000      2.373466E-003  1.657355E+002 -3.767565E+001  7.174940E+001 -3.768142E+001  7.177877E+001  1.063405E-003  1.651491E+002
1270.0000      1.759939E-003  1.656369E+002 -3.762478E+001  7.144901E+001 -3.762225E+001  7.169933E+001 -4.603033E-005  1.650297E+002
1280.0000      2.373412E-003  1.655336E+002 -3.755672E+001  7.142550E+001 -3.756122E+001  7.161535E+001 -5.309076E-004  1.649151E+002
1290.0000      3.999984E-003  1.654325E+002 -3.752397E+001  7.138941E+001 -3.748419E+001  7.155708E+001 -9.020497E-004  1.647978E+002
1300.0000      4.623285E-003  1.653365E+002 -3.743467E+001  7.144147E+001 -3.745013E+001  7.145302E+001  8.311331E-005  1.646909E+002
1310.0000      3.794671E-003  1.652276E+002 -3.737826E+001  7.135021E+001 -3.738999E+001  7.132132E+001 -1.001453E-004  1.645578E+002
1320.0000      5.032629E-003  1.651270E+002 -3.733730E+001  7.115113E+001 -3.733614E+001  7.126634E+001  1.412257E-003  1.644424E+002
1330.0000      5.021800E-003  1.650346E+002 -3.727320E+001  7.114445E+001 -3.727706E+001  7.114963E+001  7.614752E-004  1.643240E+002
1340.0000      6.312976E-003  1.649282E+002 -3.721625E+001  7.104152E+001 -3.722000E+001  7.114400E+001  1.727812E-003  1.641992E+002
1350.0000      5.435764E-003  1.648292E+002 -3.717841E+001  7.091566E+001 -3.715559E+001  7.103332E+001  2.883441E-003  1.640732E+002
1360.0000      6.224043E-003  1.647261E+002 -3.709508E+001  7.085403E+001 -3.712502E+001  7.092717E+001  2.740019E-003  1.639476E+002
1370.0000      5.652627E-003  1.646229E+002 -3.706185E+001  7.070856E+001 -3.704253E+001  7.077973E+001  1.195317E-003  1.638130E+002
1380.0000      4.404319E-003  1.645154E+002 -3.702829E+001  7.068805E+001 -3.701727E+001  7.076585E+001 -3.368629E-004  1.636911E+002
1390.0000      5.198473E-003  1.644120E+002 -3.696787E+001  7.055251E+001 -3.695348E+001  7.068355E+001 -1.502824E-003  1.635619E+002
1400.0000      4.517403E-003  1.643005E+002 -3.690617E+001  7.040659E+001 -3.692033E+001  7.056119E+001 -1.397924E-003  1.634381E+002
1410.0000      5.397673E-003  1.642039E+002 -3.688012E+001  7.046487E+001 -3.688546E+001  7.040174E+001 -1.098267E-003  1.633183E+002
1420.0000      5.363770E-003  1.641004E+002 -3.682952E+001  7.031684E+001 -3.684233E+001  7.038525E+001 -7.632511E-004  1.631945E+002
1430.0000      3.762480E-003  1.640054E+002 -3.677891E+001  7.027711E+001 -3.678138E+001  7.015691E+001 -1.183764E-003  1.630722E+002
1440.0000      4.016283E-003  1.639120E+002 -3.673689E+001  7.020413E+001 -3.674053E+001  7.014015E+001 -5.839525E-004  1.629511E+002
1450.0000      5.695483E-003  1.638143E+002 -3.669350E+001  7.010620E+001 -3.669009E+001  7.012023E+001  8.954537E-004  1.628290E+002
1460.0000      3.674447E-003  1.637215E+002 -3.664897E+001  7.008460E+001 -3.664243E+001  6.993039E+001  2.123015E-003  1.627127E+002
1470.0000      5.793784E-003  1.636124E+002 -3.659764E+001  6.988760E+001 -3.661856E+001  6.995171E+001  1.189730E-003  1.625755E+002
